
T0B38 000:410 SEGGER J-Link V4.98e Log File (0002ms, 0291ms total)
T0B38 000:410 DLL Compiled: May  5 2015 11:00:52 (0002ms, 0291ms total)
T0B38 000:410 Logging started @ 2017-12-15 21:31 (0002ms, 0291ms total)
T0B38 000:412 JLINK_SetWarnOutHandler(...) (0000ms, 0291ms total)
T0B38 000:412 JLINK_OpenEx(...)
Firmware: J-Link V9 compiled Dec  1 2017 14:40:21
Hardware: V9.20
Feature(s): RDI, GDB, FlashDL, FlashBP, JFlash, RDDI  returns O.K. (0279ms, 0570ms total)
T0B38 000:691 JLINK_SetErrorOutHandler(...) (0000ms, 0570ms total)
T0B38 000:691 JLINK_ExecCommand("ProjectFile = "E:\Users\P51\Documents\GitHub\T_Infantry\MDK-ARM\JLinkSettings.ini"", ...)Device "UNSPECIFIED" selected.  returns 0x00 (0049ms, 0619ms total)
T0B38 000:803 JLINK_ExecCommand("Device = STM32F427IIHx", ...)Device "UNSPECIFIED" selected.  returns 0x00 (0062ms, 0681ms total)
T0B38 000:865 JLINK_ExecCommand("DisableConnectionTimeout", ...)  returns 0x01 (0000ms, 0681ms total)
T0B38 000:865 JLINK_GetHardwareVersion()  returns 0x16760 (0000ms, 0681ms total)
T0B38 000:865 JLINK_GetDLLVersion()  returns 49805 (0000ms, 0681ms total)
T0B38 000:865 JLINK_GetFirmwareString(...) (0000ms, 0681ms total)
T0B38 000:970 JLINK_GetDLLVersion()  returns 49805 (0000ms, 0681ms total)
T0B38 000:970 JLINK_GetCompileDateTime() (0001ms, 0682ms total)
T0B38 000:993 JLINK_GetFirmwareString(...) (0001ms, 0683ms total)
T0B38 001:025 JLINK_GetHardwareVersion()  returns 0x16760 (0000ms, 0683ms total)
T0B38 001:110 JLINK_TIF_Select(JLINKARM_TIF_SWD)  returns 0x00 (0001ms, 0684ms total)
T0B38 001:111 JLINK_SetSpeed(5000) (0001ms, 0685ms total)
T0B38 001:112 JLINK_GetId() >0x108 TIF>Found SWD-DP with ID 0x2BA01477 >0x0D TIF> >0x21 TIF> >0x0D TIF> >0x28 TIF> >0x0D TIF> >0x28 TIF> >0x0D TIF> >0x21 TIF> >0x0D TIF> >0x28 TIF> >0x0D TIF> >0x21 TIF> >0x0D TIF> >0x21 TIF> >0x0D TIF> >0x21 TIF> >0x0D TIF> >0x21 TIF> >0x0D TIF> >0x28 TIF> >0x0D TIF> >0x28 TIF> >0x0D TIF> >0x21 TIF> >0x0D TIF> >0x28 TIF> >0x0D TIF> >0x28 TIF> >0x0D TIF> >0x28 TIF> >0x0D TIF> >0x21 TIF> >0x0D TIF> >0x21 TIF> >0x0D TIF> >0x28 TIF> >0x0D TIF> >0x21 TIF> >0x0D TIF>
 >0x21 TIF>Found Cortex-M4 r0p1, Little endian. -- CPU_WriteMem(4 bytes @ 0xE0002000) -- CPU_ReadMem(4 bytes @ 0xE000EDF0) -- CPU_WriteMem(4 bytes @ 0xE000EDF0) -- CPU_ReadMem(4 bytes @ 0xE0002000)FPUnit: 6 code (BP) slots and 2 literal slots -- CPU_ReadMem(4 bytes @ 0xE000EDFC) -- CPU_WriteMem(4 bytes @ 0xE000EDFC) -- CPU_ReadMem(4 bytes @ 0xE0001000) -- CPU_WriteMem(4 bytes @ 0xE0001000) -- CPU_ReadMem(4 bytes @ 0xE000ED88) -- CPU_WriteMem(4 bytes @ 0xE000ED88) -- CPU_ReadMem(4 bytes @ 0xE000ED88)
 -- CPU_WriteMem(4 bytes @ 0xE000ED88)CoreSight components:ROMTbl 0 @ E00FF000 -- CPU_ReadMem(16 bytes @ 0xE00FF000) -- CPU_ReadMem(16 bytes @ 0xE000EFF0) -- CPU_ReadMem(16 bytes @ 0xE000EFE0)ROMTbl 0 [0]: FFF0F000, CID: B105E00D, PID: 000BB00C SCS -- CPU_ReadMem(16 bytes @ 0xE0001FF0) -- CPU_ReadMem(16 bytes @ 0xE0001FE0)ROMTbl 0 [1]: FFF02000, CID: B105E00D, PID: 003BB002 DWT -- CPU_ReadMem(16 bytes @ 0xE0002FF0) -- CPU_ReadMem(16 bytes @ 0xE0002FE0)
ROMTbl 0 [2]: FFF03000, CID: B105E00D, PID: 002BB003 FPB -- CPU_ReadMem(16 bytes @ 0xE0000FF0) -- CPU_ReadMem(16 bytes @ 0xE0000FE0)ROMTbl 0 [3]: FFF01000, CID: B105E00D, PID: 003BB001 ITM -- CPU_ReadMem(16 bytes @ 0xE00FF010) -- CPU_ReadMem(16 bytes @ 0xE0040FF0) -- CPU_ReadMem(16 bytes @ 0xE0040FE0)ROMTbl 0 [4]: FFF41000, CID: B105900D, PID: 000BB9A1 TPIU -- CPU_ReadMem(16 bytes @ 0xE0041FF0) -- CPU_ReadMem(16 bytes @ 0xE0041FE0)ROMTbl 0 [5]: FFF42000, CID: B105900D, PID: 000BB925 ETM >0x0D TIF>
 >0x21 TIF>  returns 0x2BA01477 (0362ms, 1047ms total)
T0B38 001:474 JLINK_GetDLLVersion()  returns 49805 (0000ms, 1047ms total)
T0B38 001:474 JLINK_CORE_GetFound()  returns 0xE0000FF (0001ms, 1048ms total)
T0B38 001:475 JLINK_GetDebugInfo(0x100) -- Value=0xE00FF003  returns 0x00 (0000ms, 1048ms total)
T0B38 001:511 JLINK_ReadMem (0xE00FF000, 0x0020 Bytes, ...) -- CPU is running -- CPU_ReadMem(32 bytes @ 0xE00FF000) - Data: 03 F0 F0 FF 03 20 F0 FF 03 30 F0 FF 03 10 F0 FF ...  returns 0x00 (0000ms, 1048ms total)
T0B38 001:512 JLINK_ReadMem (0xE000EFF0, 0x0010 Bytes, ...) -- CPU is running -- CPU_ReadMem(16 bytes @ 0xE000EFF0) - Data: 0D 00 00 00 E0 00 00 00 05 00 00 00 B1 00 00 00  returns 0x00 (0000ms, 1049ms total)
T0B38 001:512 JLINK_ReadMem (0xE000EFD0, 0x0020 Bytes, ...) -- CPU is running -- CPU_ReadMem(32 bytes @ 0xE000EFD0) - Data: 04 00 00 00 00 00 00 00 00 00 00 00 00 00 00 00 ...  returns 0x00 (0001ms, 1050ms total)
T0B38 001:513 JLINK_ReadMem (0xE0001FF0, 0x0010 Bytes, ...) -- CPU is running -- CPU_ReadMem(16 bytes @ 0xE0001FF0) - Data: 0D 00 00 00 E0 00 00 00 05 00 00 00 B1 00 00 00  returns 0x00 (0000ms, 1050ms total)
T0B38 001:513 JLINK_ReadMem (0xE0001FD0, 0x0020 Bytes, ...) -- CPU is running -- CPU_ReadMem(32 bytes @ 0xE0001FD0) - Data: 04 00 00 00 00 00 00 00 00 00 00 00 00 00 00 00 ...  returns 0x00 (0001ms, 1051ms total)
T0B38 001:514 JLINK_ReadMem (0xE0002FF0, 0x0010 Bytes, ...) -- CPU is running -- CPU_ReadMem(16 bytes @ 0xE0002FF0) - Data: 0D 00 00 00 E0 00 00 00 05 00 00 00 B1 00 00 00  returns 0x00 (0001ms, 1052ms total)
T0B38 001:515 JLINK_ReadMem (0xE0002FD0, 0x0020 Bytes, ...) -- CPU is running -- CPU_ReadMem(32 bytes @ 0xE0002FD0) - Data: 04 00 00 00 00 00 00 00 00 00 00 00 00 00 00 00 ...  returns 0x00 (0000ms, 1052ms total)
T0B38 001:516 JLINK_ReadMem (0xE0000FF0, 0x0010 Bytes, ...) -- CPU is running -- CPU_ReadMem(16 bytes @ 0xE0000FF0) - Data: 0D 00 00 00 E0 00 00 00 05 00 00 00 B1 00 00 00  returns 0x00 (0000ms, 1052ms total)
T0B38 001:516 JLINK_ReadMem (0xE0000FD0, 0x0020 Bytes, ...) -- CPU is running -- CPU_ReadMem(32 bytes @ 0xE0000FD0) - Data: 04 00 00 00 00 00 00 00 00 00 00 00 00 00 00 00 ...  returns 0x00 (0001ms, 1053ms total)
T0B38 001:517 JLINK_ReadMem (0xE0040FF0, 0x0010 Bytes, ...) -- CPU is running -- CPU_ReadMem(16 bytes @ 0xE0040FF0) - Data: 0D 00 00 00 90 00 00 00 05 00 00 00 B1 00 00 00  returns 0x00 (0000ms, 1053ms total)
T0B38 001:517 JLINK_ReadMem (0xE0040FD0, 0x0020 Bytes, ...) -- CPU is running -- CPU_ReadMem(32 bytes @ 0xE0040FD0) - Data: 04 00 00 00 00 00 00 00 00 00 00 00 00 00 00 00 ...  returns 0x00 (0001ms, 1054ms total)
T0B38 001:518 JLINK_ReadMem (0xE0041FF0, 0x0010 Bytes, ...) -- CPU is running -- CPU_ReadMem(16 bytes @ 0xE0041FF0) - Data: 0D 00 00 00 90 00 00 00 05 00 00 00 B1 00 00 00  returns 0x00 (0000ms, 1054ms total)
T0B38 001:519 JLINK_ReadMem (0xE0041FD0, 0x0020 Bytes, ...) -- CPU is running -- CPU_ReadMem(32 bytes @ 0xE0041FD0) - Data: 04 00 00 00 00 00 00 00 00 00 00 00 00 00 00 00 ...  returns 0x00 (0000ms, 1054ms total)
T0B38 001:519 JLINK_ReadMemU32(0xE000EF40, 0x0001 Items, ...) -- CPU is running -- CPU_ReadMem(4 bytes @ 0xE000EF40) - Data: 21 00 11 10  returns 0x01 (0001ms, 1055ms total)
T0B38 001:520 JLINK_ReadMemU32(0xE000EF44, 0x0001 Items, ...) -- CPU is running -- CPU_ReadMem(4 bytes @ 0xE000EF44) - Data: 11 00 00 11  returns 0x01 (0000ms, 1055ms total)
T0B38 001:520 JLINK_ReadMemU32(0xE000ED00, 0x0001 Items, ...) -- CPU is running -- CPU_ReadMem(4 bytes @ 0xE000ED00) - Data: 41 C2 0F 41  returns 0x01 (0001ms, 1056ms total)
T0B38 001:521 JLINK_SetResetType(JLINKARM_RESET_TYPE_NORMAL)  returns JLINKARM_RESET_TYPE_NORMAL (0000ms, 1056ms total)
T0B38 001:521 JLINK_Reset() -- CPU is running -- CPU_WriteMem(4 bytes @ 0xE000EDF0) -- CPU is running -- CPU_WriteMem(4 bytes @ 0xE000EDFC) >0x35 TIF> -- CPU is running -- CPU_WriteMem(4 bytes @ 0xE000ED0C) -- CPU is running -- CPU_ReadMem(4 bytes @ 0xE000EDF0) -- CPU is running -- CPU_ReadMem(4 bytes @ 0xE000EDF0) -- CPU is running -- CPU_WriteMem(4 bytes @ 0xE000EDF0) -- CPU is running -- CPU_WriteMem(4 bytes @ 0xE000EDFC) -- CPU is running -- CPU_ReadMem(4 bytes @ 0xE000EDF0)
 -- CPU_WriteMem(4 bytes @ 0xE0002000) -- CPU_ReadMem(4 bytes @ 0xE000EDFC) -- CPU_ReadMem(4 bytes @ 0xE0001000) (0016ms, 1072ms total)
T0B38 001:537 JLINK_Halt()  returns 0x00 (0000ms, 1072ms total)
T0B38 001:537 JLINK_IsHalted()  returns TRUE (0000ms, 1072ms total)
T0B38 001:537 JLINK_ReadMemU32(0xE000EDF0, 0x0001 Items, ...) -- CPU_ReadMem(4 bytes @ 0xE000EDF0) - Data: 03 00 03 00  returns 0x01 (0001ms, 1073ms total)
T0B38 001:538 JLINK_WriteU32(0xE000EDF0, 0xA05F0003) -- CPU_WriteMem(4 bytes @ 0xE000EDF0)  returns 0x00 (0000ms, 1073ms total)
T0B38 001:538 JLINK_WriteU32(0xE000EDFC, 0x01000000) -- CPU_WriteMem(4 bytes @ 0xE000EDFC)  returns 0x00 (0001ms, 1074ms total)
T0B38 001:674 JLINK_GetHWStatus(...)  returns 0x00 (0001ms, 1075ms total)
T0B38 001:751 JLINK_GetNumBPUnits(Type = 0xFFFFFF00)  returns 0x06 (0000ms, 1075ms total)
T0B38 001:751 JLINK_GetNumBPUnits(Type = 0xF0)  returns 0x2000 (0000ms, 1075ms total)
T0B38 001:751 JLINK_GetNumWPUnits()  returns 0x04 (0000ms, 1075ms total)
T0B38 001:839 JLINK_GetSpeed()  returns 0xFA0 (0000ms, 1075ms total)
T0B38 001:897 JLINK_ReadMemU32(0xE000E004, 0x0001 Items, ...) -- CPU_ReadMem(4 bytes @ 0xE000E004) - Data: 02 00 00 00  returns 0x01 (0001ms, 1076ms total)
T0B38 001:898 JLINK_ReadMemU32(0xE000E004, 0x0001 Items, ...) -- CPU_ReadMem(4 bytes @ 0xE000E004) - Data: 02 00 00 00  returns 0x01 (0000ms, 1076ms total)
T0B38 001:899 JLINK_WriteMem(0xE0001000, 0x001C Bytes, ...) - Data: 01 00 00 00 00 00 00 00 00 00 00 00 00 00 00 00 ... -- CPU_WriteMem(28 bytes @ 0xE0001000)  returns 0x1C (0001ms, 1078ms total)
T0B38 001:900 JLINK_ReadMem (0xE0001000, 0x001C Bytes, ...) -- CPU_ReadMem(28 bytes @ 0xE0001000) - Data: 01 00 00 40 00 00 00 00 00 00 00 00 00 00 00 00 ...  returns 0x00 (0001ms, 1079ms total)
T0B38 001:901 JLINK_Halt()  returns 0x00 (0000ms, 1079ms total)
T0B38 001:901 JLINK_IsHalted()  returns TRUE (0000ms, 1079ms total)
T0B38 001:912 JLINK_WriteMem(0x20000000, 0x0198 Bytes, ...) - Data: 00 BE 0A E0 0D 78 2D 06 68 40 08 24 40 00 00 D3 ... -- CPU_WriteMem(408 bytes @ 0x20000000)  returns 0x198 (0003ms, 1082ms total)
T0B38 001:915 JLINK_WriteReg(R0, 0x08000000)  returns 0x00 (0000ms, 1082ms total)
T0B38 001:915 JLINK_WriteReg(R1, 0x0A037A00)  returns 0x00 (0000ms, 1082ms total)
T0B38 001:915 JLINK_WriteReg(R2, 0x00000001)  returns 0x00 (0000ms, 1082ms total)
T0B38 001:915 JLINK_WriteReg(R3, 0x00000000)  returns 0x00 (0000ms, 1082ms total)
T0B38 001:915 JLINK_WriteReg(R4, 0x00000000)  returns 0x00 (0000ms, 1082ms total)
T0B38 001:915 JLINK_WriteReg(R5, 0x00000000)  returns 0x00 (0000ms, 1082ms total)
T0B38 001:915 JLINK_WriteReg(R6, 0x00000000)  returns 0x00 (0000ms, 1082ms total)
T0B38 001:915 JLINK_WriteReg(R7, 0x00000000)  returns 0x00 (0000ms, 1082ms total)
T0B38 001:915 JLINK_WriteReg(R8, 0x00000000)  returns 0x00 (0001ms, 1083ms total)
T0B38 001:916 JLINK_WriteReg(R9, 0x20000194)  returns 0x00 (0000ms, 1083ms total)
T0B38 001:916 JLINK_WriteReg(R10, 0x00000000)  returns 0x00 (0000ms, 1083ms total)
T0B38 001:916 JLINK_WriteReg(R11, 0x00000000)  returns 0x00 (0000ms, 1083ms total)
T0B38 001:916 JLINK_WriteReg(R12, 0x00000000)  returns 0x00 (0000ms, 1083ms total)
T0B38 001:916 JLINK_WriteReg(R13 (SP), 0x20001000)  returns 0x00 (0000ms, 1083ms total)
T0B38 001:916 JLINK_WriteReg(R14, 0x20000001)  returns 0x00 (0000ms, 1083ms total)
T0B38 001:916 JLINK_WriteReg(R15 (PC), 0x2000005E)  returns 0x00 (0000ms, 1083ms total)
T0B38 001:916 JLINK_WriteReg(XPSR, 0x01000000)  returns 0x00 (0000ms, 1083ms total)
T0B38 001:916 JLINK_WriteReg(MSP, 0x20001000)  returns 0x00 (0000ms, 1083ms total)
T0B38 001:916 JLINK_WriteReg(PSP, 0x20001000)  returns 0x00 (0000ms, 1083ms total)
T0B38 001:916 JLINK_WriteReg(CFBP, 0x00000000)  returns 0x00 (0000ms, 1083ms total)
T0B38 001:916 JLINK_SetBPEx(Addr = 0x20000000, Type = 0xFFFFFFF2) -- CPU_ReadMem(4 bytes @ 0x20000000) -- CPU_WriteMem(4 bytes @ 0x20000000) -- CPU_ReadMem(4 bytes @ 0x20000000) -- CPU_WriteMem(4 bytes @ 0x20000000) -- CPU_ReadMem(2 bytes @ 0x20000000)  returns 0x00000001 (0003ms, 1086ms total)
T0B38 001:919 JLINK_Go() -- CPU_WriteMem(2 bytes @ 0x20000000) -- CPU_ReadMem(4 bytes @ 0xE0001000) -- CPU_WriteMem(4 bytes @ 0xE0002008) -- CPU_WriteMem(4 bytes @ 0xE000200C) -- CPU_WriteMem(4 bytes @ 0xE0002010) -- CPU_WriteMem(4 bytes @ 0xE0002014) -- CPU_WriteMem(4 bytes @ 0xE0002018) -- CPU_WriteMem(4 bytes @ 0xE000201C) -- CPU_WriteMem(4 bytes @ 0xE0001004) (0003ms, 1089ms total)
T0B38 001:922 JLINK_IsHalted() -- CPU_ReadMem(2 bytes @ 0x20000000)  returns TRUE (0003ms, 1092ms total)
T0B38 001:925 JLINK_ReadReg(R15 (PC))  returns 0x20000000 (0000ms, 1089ms total)
T0B38 001:925 JLINK_ClrBPEx(BPHandle = 0x00000001)  returns 0x00 (0000ms, 1089ms total)
T0B38 001:925 JLINK_ReadReg(R0)  returns 0x00000000 (0000ms, 1089ms total)
T0B38 001:929 JLINK_WriteReg(R0, 0x08000000)  returns 0x00 (0000ms, 1089ms total)
T0B38 001:929 JLINK_WriteReg(R1, 0x00004000)  returns 0x00 (0001ms, 1090ms total)
T0B38 001:930 JLINK_WriteReg(R2, 0x000000FF)  returns 0x00 (0000ms, 1090ms total)
T0B38 001:930 JLINK_WriteReg(R3, 0x00000000)  returns 0x00 (0000ms, 1090ms total)
T0B38 001:930 JLINK_WriteReg(R4, 0x00000000)  returns 0x00 (0000ms, 1090ms total)
T0B38 001:930 JLINK_WriteReg(R5, 0x00000000)  returns 0x00 (0000ms, 1090ms total)
T0B38 001:930 JLINK_WriteReg(R6, 0x00000000)  returns 0x00 (0000ms, 1090ms total)
T0B38 001:930 JLINK_WriteReg(R7, 0x00000000)  returns 0x00 (0000ms, 1090ms total)
T0B38 001:930 JLINK_WriteReg(R8, 0x00000000)  returns 0x00 (0000ms, 1090ms total)
T0B38 001:930 JLINK_WriteReg(R9, 0x20000194)  returns 0x00 (0000ms, 1090ms total)
T0B38 001:930 JLINK_WriteReg(R10, 0x00000000)  returns 0x00 (0000ms, 1090ms total)
T0B38 001:930 JLINK_WriteReg(R11, 0x00000000)  returns 0x00 (0000ms, 1090ms total)
T0B38 001:930 JLINK_WriteReg(R12, 0x00000000)  returns 0x00 (0000ms, 1090ms total)
T0B38 001:930 JLINK_WriteReg(R13 (SP), 0x20001000)  returns 0x00 (0000ms, 1090ms total)
T0B38 001:930 JLINK_WriteReg(R14, 0x20000001)  returns 0x00 (0000ms, 1090ms total)
T0B38 001:930 JLINK_WriteReg(R15 (PC), 0x20000020)  returns 0x00 (0000ms, 1090ms total)
T0B38 001:930 JLINK_WriteReg(XPSR, 0x01000000)  returns 0x00 (0000ms, 1090ms total)
T0B38 001:930 JLINK_WriteReg(MSP, 0x20001000)  returns 0x00 (0000ms, 1090ms total)
T0B38 001:930 JLINK_WriteReg(PSP, 0x20001000)  returns 0x00 (0000ms, 1090ms total)
T0B38 001:930 JLINK_WriteReg(CFBP, 0x00000000)  returns 0x00 (0000ms, 1090ms total)
T0B38 001:930 JLINK_SetBPEx(Addr = 0x20000000, Type = 0xFFFFFFF2)  returns 0x00000002 (0000ms, 1090ms total)
T0B38 001:931 JLINK_Go() -- CPU_ReadMem(4 bytes @ 0xE0001000) (0001ms, 1092ms total)
T0B38 001:932 JLINK_IsHalted() -- CPU_ReadMem(2 bytes @ 0x20000000)  returns TRUE (0003ms, 1095ms total)
T0B38 001:935 JLINK_ReadReg(R15 (PC))  returns 0x20000000 (0000ms, 1092ms total)
T0B38 001:935 JLINK_ClrBPEx(BPHandle = 0x00000002)  returns 0x00 (0000ms, 1092ms total)
T0B38 001:935 JLINK_ReadReg(R0)  returns 0x00000001 (0000ms, 1092ms total)
T0B38 001:935 JLINK_WriteReg(R0, 0x08000000)  returns 0x00 (0000ms, 1092ms total)
T0B38 001:935 JLINK_WriteReg(R1, 0x00004000)  returns 0x00 (0000ms, 1092ms total)
T0B38 001:935 JLINK_WriteReg(R2, 0x000000FF)  returns 0x00 (0000ms, 1092ms total)
T0B38 001:935 JLINK_WriteReg(R3, 0x00000000)  returns 0x00 (0000ms, 1092ms total)
T0B38 001:935 JLINK_WriteReg(R4, 0x00000000)  returns 0x00 (0000ms, 1092ms total)
T0B38 001:935 JLINK_WriteReg(R5, 0x00000000)  returns 0x00 (0001ms, 1093ms total)
T0B38 001:936 JLINK_WriteReg(R6, 0x00000000)  returns 0x00 (0000ms, 1093ms total)
T0B38 001:936 JLINK_WriteReg(R7, 0x00000000)  returns 0x00 (0000ms, 1093ms total)
T0B38 001:936 JLINK_WriteReg(R8, 0x00000000)  returns 0x00 (0000ms, 1093ms total)
T0B38 001:936 JLINK_WriteReg(R9, 0x20000194)  returns 0x00 (0000ms, 1093ms total)
T0B38 001:936 JLINK_WriteReg(R10, 0x00000000)  returns 0x00 (0000ms, 1093ms total)
T0B38 001:936 JLINK_WriteReg(R11, 0x00000000)  returns 0x00 (0000ms, 1093ms total)
T0B38 001:936 JLINK_WriteReg(R12, 0x00000000)  returns 0x00 (0000ms, 1093ms total)
T0B38 001:936 JLINK_WriteReg(R13 (SP), 0x20001000)  returns 0x00 (0000ms, 1093ms total)
T0B38 001:936 JLINK_WriteReg(R14, 0x20000001)  returns 0x00 (0000ms, 1093ms total)
T0B38 001:936 JLINK_WriteReg(R15 (PC), 0x200000D4)  returns 0x00 (0000ms, 1093ms total)
T0B38 001:936 JLINK_WriteReg(XPSR, 0x01000000)  returns 0x00 (0000ms, 1093ms total)
T0B38 001:936 JLINK_WriteReg(MSP, 0x20001000)  returns 0x00 (0000ms, 1093ms total)
T0B38 001:936 JLINK_WriteReg(PSP, 0x20001000)  returns 0x00 (0000ms, 1093ms total)
T0B38 001:937 JLINK_WriteReg(CFBP, 0x00000000)  returns 0x00 (0000ms, 1094ms total)
T0B38 001:937 JLINK_SetBPEx(Addr = 0x20000000, Type = 0xFFFFFFF2)  returns 0x00000003 (0000ms, 1094ms total)
T0B38 001:937 JLINK_Go() -- CPU_ReadMem(4 bytes @ 0xE0001000) (0001ms, 1095ms total)
T0B38 001:938 JLINK_IsHalted()  returns FALSE (0001ms, 1096ms total)
T0B38 002:416 JLINK_IsHalted() -- CPU_ReadMem(2 bytes @ 0x20000000)  returns TRUE (0002ms, 1097ms total)
T0B38 002:418 JLINK_ReadReg(R15 (PC))  returns 0x20000000 (0000ms, 1095ms total)
T0B38 002:418 JLINK_ClrBPEx(BPHandle = 0x00000003)  returns 0x00 (0000ms, 1095ms total)
T0B38 002:418 JLINK_ReadReg(R0)  returns 0x00000000 (0000ms, 1095ms total)
T0B38 002:421 JLINK_WriteReg(R0, 0x08004000)  returns 0x00 (0000ms, 1095ms total)
T0B38 002:421 JLINK_WriteReg(R1, 0x00004000)  returns 0x00 (0000ms, 1095ms total)
T0B38 002:421 JLINK_WriteReg(R2, 0x000000FF)  returns 0x00 (0000ms, 1095ms total)
T0B38 002:421 JLINK_WriteReg(R3, 0x00000000)  returns 0x00 (0000ms, 1095ms total)
T0B38 002:421 JLINK_WriteReg(R4, 0x00000000)  returns 0x00 (0000ms, 1095ms total)
T0B38 002:421 JLINK_WriteReg(R5, 0x00000000)  returns 0x00 (0000ms, 1095ms total)
T0B38 002:421 JLINK_WriteReg(R6, 0x00000000)  returns 0x00 (0000ms, 1095ms total)
T0B38 002:421 JLINK_WriteReg(R7, 0x00000000)  returns 0x00 (0000ms, 1095ms total)
T0B38 002:421 JLINK_WriteReg(R8, 0x00000000)  returns 0x00 (0000ms, 1095ms total)
T0B38 002:421 JLINK_WriteReg(R9, 0x20000194)  returns 0x00 (0000ms, 1095ms total)
T0B38 002:421 JLINK_WriteReg(R10, 0x00000000)  returns 0x00 (0000ms, 1095ms total)
T0B38 002:421 JLINK_WriteReg(R11, 0x00000000)  returns 0x00 (0000ms, 1095ms total)
T0B38 002:421 JLINK_WriteReg(R12, 0x00000000)  returns 0x00 (0000ms, 1095ms total)
T0B38 002:421 JLINK_WriteReg(R13 (SP), 0x20001000)  returns 0x00 (0000ms, 1095ms total)
T0B38 002:421 JLINK_WriteReg(R14, 0x20000001)  returns 0x00 (0000ms, 1095ms total)
T0B38 002:421 JLINK_WriteReg(R15 (PC), 0x20000020)  returns 0x00 (0000ms, 1095ms total)
T0B38 002:421 JLINK_WriteReg(XPSR, 0x01000000)  returns 0x00 (0000ms, 1095ms total)
T0B38 002:421 JLINK_WriteReg(MSP, 0x20001000)  returns 0x00 (0001ms, 1096ms total)
T0B38 002:422 JLINK_WriteReg(PSP, 0x20001000)  returns 0x00 (0000ms, 1096ms total)
T0B38 002:422 JLINK_WriteReg(CFBP, 0x00000000)  returns 0x00 (0000ms, 1096ms total)
T0B38 002:422 JLINK_SetBPEx(Addr = 0x20000000, Type = 0xFFFFFFF2)  returns 0x00000004 (0000ms, 1096ms total)
T0B38 002:422 JLINK_Go() -- CPU_ReadMem(4 bytes @ 0xE0001000) (0001ms, 1097ms total)
T0B38 002:423 JLINK_IsHalted() -- CPU_ReadMem(2 bytes @ 0x20000000)  returns TRUE (0003ms, 1100ms total)
T0B38 002:426 JLINK_ReadReg(R15 (PC))  returns 0x20000000 (0000ms, 1097ms total)
T0B38 002:426 JLINK_ClrBPEx(BPHandle = 0x00000004)  returns 0x00 (0000ms, 1097ms total)
T0B38 002:426 JLINK_ReadReg(R0)  returns 0x00000001 (0000ms, 1097ms total)
T0B38 002:426 JLINK_WriteReg(R0, 0x08004000)  returns 0x00 (0000ms, 1097ms total)
T0B38 002:426 JLINK_WriteReg(R1, 0x00004000)  returns 0x00 (0000ms, 1097ms total)
T0B38 002:426 JLINK_WriteReg(R2, 0x000000FF)  returns 0x00 (0000ms, 1097ms total)
T0B38 002:426 JLINK_WriteReg(R3, 0x00000000)  returns 0x00 (0000ms, 1097ms total)
T0B38 002:426 JLINK_WriteReg(R4, 0x00000000)  returns 0x00 (0000ms, 1097ms total)
T0B38 002:427 JLINK_WriteReg(R5, 0x00000000)  returns 0x00 (0000ms, 1097ms total)
T0B38 002:427 JLINK_WriteReg(R6, 0x00000000)  returns 0x00 (0000ms, 1097ms total)
T0B38 002:427 JLINK_WriteReg(R7, 0x00000000)  returns 0x00 (0000ms, 1097ms total)
T0B38 002:427 JLINK_WriteReg(R8, 0x00000000)  returns 0x00 (0000ms, 1097ms total)
T0B38 002:427 JLINK_WriteReg(R9, 0x20000194)  returns 0x00 (0000ms, 1097ms total)
T0B38 002:427 JLINK_WriteReg(R10, 0x00000000)  returns 0x00 (0000ms, 1097ms total)
T0B38 002:427 JLINK_WriteReg(R11, 0x00000000)  returns 0x00 (0000ms, 1097ms total)
T0B38 002:427 JLINK_WriteReg(R12, 0x00000000)  returns 0x00 (0000ms, 1097ms total)
T0B38 002:427 JLINK_WriteReg(R13 (SP), 0x20001000)  returns 0x00 (0000ms, 1097ms total)
T0B38 002:427 JLINK_WriteReg(R14, 0x20000001)  returns 0x00 (0000ms, 1097ms total)
T0B38 002:427 JLINK_WriteReg(R15 (PC), 0x200000D4)  returns 0x00 (0000ms, 1097ms total)
T0B38 002:427 JLINK_WriteReg(XPSR, 0x01000000)  returns 0x00 (0000ms, 1097ms total)
T0B38 002:427 JLINK_WriteReg(MSP, 0x20001000)  returns 0x00 (0000ms, 1097ms total)
T0B38 002:427 JLINK_WriteReg(PSP, 0x20001000)  returns 0x00 (0000ms, 1097ms total)
T0B38 002:427 JLINK_WriteReg(CFBP, 0x00000000)  returns 0x00 (0000ms, 1097ms total)
T0B38 002:427 JLINK_SetBPEx(Addr = 0x20000000, Type = 0xFFFFFFF2)  returns 0x00000005 (0000ms, 1097ms total)
T0B38 002:427 JLINK_Go() -- CPU_ReadMem(4 bytes @ 0xE0001000) (0002ms, 1099ms total)
T0B38 002:429 JLINK_IsHalted()  returns FALSE (0000ms, 1099ms total)
T0B38 002:722 JLINK_IsHalted()  returns FALSE (0001ms, 1100ms total)
T0B38 003:039 JLINK_IsHalted() -- CPU_ReadMem(2 bytes @ 0x20000000)  returns TRUE (0003ms, 1102ms total)
T0B38 003:042 JLINK_ReadReg(R15 (PC))  returns 0x20000000 (0000ms, 1099ms total)
T0B38 003:042 JLINK_ClrBPEx(BPHandle = 0x00000005)  returns 0x00 (0000ms, 1099ms total)
T0B38 003:042 JLINK_ReadReg(R0)  returns 0x00000000 (0000ms, 1099ms total)
T0B38 003:044 JLINK_WriteReg(R0, 0x08008000)  returns 0x00 (0000ms, 1099ms total)
T0B38 003:044 JLINK_WriteReg(R1, 0x00004000)  returns 0x00 (0000ms, 1099ms total)
T0B38 003:044 JLINK_WriteReg(R2, 0x000000FF)  returns 0x00 (0000ms, 1099ms total)
T0B38 003:044 JLINK_WriteReg(R3, 0x00000000)  returns 0x00 (0000ms, 1099ms total)
T0B38 003:044 JLINK_WriteReg(R4, 0x00000000)  returns 0x00 (0000ms, 1099ms total)
T0B38 003:044 JLINK_WriteReg(R5, 0x00000000)  returns 0x00 (0000ms, 1099ms total)
T0B38 003:044 JLINK_WriteReg(R6, 0x00000000)  returns 0x00 (0000ms, 1099ms total)
T0B38 003:044 JLINK_WriteReg(R7, 0x00000000)  returns 0x00 (0000ms, 1099ms total)
T0B38 003:045 JLINK_WriteReg(R8, 0x00000000)  returns 0x00 (0000ms, 1100ms total)
T0B38 003:045 JLINK_WriteReg(R9, 0x20000194)  returns 0x00 (0000ms, 1100ms total)
T0B38 003:045 JLINK_WriteReg(R10, 0x00000000)  returns 0x00 (0000ms, 1100ms total)
T0B38 003:045 JLINK_WriteReg(R11, 0x00000000)  returns 0x00 (0000ms, 1100ms total)
T0B38 003:045 JLINK_WriteReg(R12, 0x00000000)  returns 0x00 (0000ms, 1100ms total)
T0B38 003:045 JLINK_WriteReg(R13 (SP), 0x20001000)  returns 0x00 (0000ms, 1100ms total)
T0B38 003:045 JLINK_WriteReg(R14, 0x20000001)  returns 0x00 (0000ms, 1100ms total)
T0B38 003:045 JLINK_WriteReg(R15 (PC), 0x20000020)  returns 0x00 (0000ms, 1100ms total)
T0B38 003:045 JLINK_WriteReg(XPSR, 0x01000000)  returns 0x00 (0000ms, 1100ms total)
T0B38 003:045 JLINK_WriteReg(MSP, 0x20001000)  returns 0x00 (0000ms, 1100ms total)
T0B38 003:045 JLINK_WriteReg(PSP, 0x20001000)  returns 0x00 (0000ms, 1100ms total)
T0B38 003:045 JLINK_WriteReg(CFBP, 0x00000000)  returns 0x00 (0000ms, 1100ms total)
T0B38 003:045 JLINK_SetBPEx(Addr = 0x20000000, Type = 0xFFFFFFF2)  returns 0x00000006 (0000ms, 1100ms total)
T0B38 003:045 JLINK_Go() -- CPU_ReadMem(4 bytes @ 0xE0001000) (0002ms, 1102ms total)
T0B38 003:047 JLINK_IsHalted() -- CPU_ReadMem(2 bytes @ 0x20000000)  returns TRUE (0003ms, 1105ms total)
T0B38 003:050 JLINK_ReadReg(R15 (PC))  returns 0x20000000 (0000ms, 1102ms total)
T0B38 003:050 JLINK_ClrBPEx(BPHandle = 0x00000006)  returns 0x00 (0000ms, 1102ms total)
T0B38 003:050 JLINK_ReadReg(R0)  returns 0x00000001 (0000ms, 1102ms total)
T0B38 003:050 JLINK_WriteReg(R0, 0x08008000)  returns 0x00 (0000ms, 1102ms total)
T0B38 003:050 JLINK_WriteReg(R1, 0x00004000)  returns 0x00 (0000ms, 1102ms total)
T0B38 003:050 JLINK_WriteReg(R2, 0x000000FF)  returns 0x00 (0000ms, 1102ms total)
T0B38 003:050 JLINK_WriteReg(R3, 0x00000000)  returns 0x00 (0000ms, 1102ms total)
T0B38 003:050 JLINK_WriteReg(R4, 0x00000000)  returns 0x00 (0000ms, 1102ms total)
T0B38 003:050 JLINK_WriteReg(R5, 0x00000000)  returns 0x00 (0000ms, 1102ms total)
T0B38 003:050 JLINK_WriteReg(R6, 0x00000000)  returns 0x00 (0000ms, 1102ms total)
T0B38 003:050 JLINK_WriteReg(R7, 0x00000000)  returns 0x00 (0000ms, 1102ms total)
T0B38 003:050 JLINK_WriteReg(R8, 0x00000000)  returns 0x00 (0000ms, 1102ms total)
T0B38 003:050 JLINK_WriteReg(R9, 0x20000194)  returns 0x00 (0000ms, 1102ms total)
T0B38 003:050 JLINK_WriteReg(R10, 0x00000000)  returns 0x00 (0000ms, 1102ms total)
T0B38 003:050 JLINK_WriteReg(R11, 0x00000000)  returns 0x00 (0000ms, 1102ms total)
T0B38 003:050 JLINK_WriteReg(R12, 0x00000000)  returns 0x00 (0000ms, 1102ms total)
T0B38 003:050 JLINK_WriteReg(R13 (SP), 0x20001000)  returns 0x00 (0000ms, 1102ms total)
T0B38 003:050 JLINK_WriteReg(R14, 0x20000001)  returns 0x00 (0001ms, 1103ms total)
T0B38 003:051 JLINK_WriteReg(R15 (PC), 0x200000D4)  returns 0x00 (0000ms, 1103ms total)
T0B38 003:051 JLINK_WriteReg(XPSR, 0x01000000)  returns 0x00 (0000ms, 1103ms total)
T0B38 003:051 JLINK_WriteReg(MSP, 0x20001000)  returns 0x00 (0000ms, 1103ms total)
T0B38 003:051 JLINK_WriteReg(PSP, 0x20001000)  returns 0x00 (0000ms, 1103ms total)
T0B38 003:051 JLINK_WriteReg(CFBP, 0x00000000)  returns 0x00 (0000ms, 1103ms total)
T0B38 003:051 JLINK_SetBPEx(Addr = 0x20000000, Type = 0xFFFFFFF2)  returns 0x00000007 (0000ms, 1103ms total)
T0B38 003:051 JLINK_Go() -- CPU_ReadMem(4 bytes @ 0xE0001000) (0001ms, 1104ms total)
T0B38 003:052 JLINK_IsHalted()  returns FALSE (0001ms, 1105ms total)
T0B38 003:364 JLINK_IsHalted()  returns FALSE (0000ms, 1104ms total)
T0B38 003:669 JLINK_IsHalted() -- CPU_ReadMem(2 bytes @ 0x20000000)  returns TRUE (0002ms, 1106ms total)
T0B38 003:671 JLINK_ReadReg(R15 (PC))  returns 0x20000000 (0000ms, 1104ms total)
T0B38 003:671 JLINK_ClrBPEx(BPHandle = 0x00000007)  returns 0x00 (0000ms, 1104ms total)
T0B38 003:671 JLINK_ReadReg(R0)  returns 0x00000000 (0000ms, 1104ms total)
T0B38 003:672 JLINK_WriteReg(R0, 0x00000001)  returns 0x00 (0000ms, 1104ms total)
T0B38 003:673 JLINK_WriteReg(R1, 0x00004000)  returns 0x00 (0000ms, 1105ms total)
T0B38 003:673 JLINK_WriteReg(R2, 0x000000FF)  returns 0x00 (0000ms, 1105ms total)
T0B38 003:673 JLINK_WriteReg(R3, 0x00000000)  returns 0x00 (0000ms, 1105ms total)
T0B38 003:673 JLINK_WriteReg(R4, 0x00000000)  returns 0x00 (0000ms, 1105ms total)
T0B38 003:673 JLINK_WriteReg(R5, 0x00000000)  returns 0x00 (0000ms, 1105ms total)
T0B38 003:673 JLINK_WriteReg(R6, 0x00000000)  returns 0x00 (0000ms, 1105ms total)
T0B38 003:673 JLINK_WriteReg(R7, 0x00000000)  returns 0x00 (0000ms, 1105ms total)
T0B38 003:673 JLINK_WriteReg(R8, 0x00000000)  returns 0x00 (0000ms, 1105ms total)
T0B38 003:673 JLINK_WriteReg(R9, 0x20000194)  returns 0x00 (0000ms, 1105ms total)
T0B38 003:673 JLINK_WriteReg(R10, 0x00000000)  returns 0x00 (0000ms, 1105ms total)
T0B38 003:673 JLINK_WriteReg(R11, 0x00000000)  returns 0x00 (0000ms, 1105ms total)
T0B38 003:673 JLINK_WriteReg(R12, 0x00000000)  returns 0x00 (0000ms, 1105ms total)
T0B38 003:673 JLINK_WriteReg(R13 (SP), 0x20001000)  returns 0x00 (0000ms, 1105ms total)
T0B38 003:673 JLINK_WriteReg(R14, 0x20000001)  returns 0x00 (0000ms, 1105ms total)
T0B38 003:673 JLINK_WriteReg(R15 (PC), 0x2000008C)  returns 0x00 (0000ms, 1105ms total)
T0B38 003:673 JLINK_WriteReg(XPSR, 0x01000000)  returns 0x00 (0000ms, 1105ms total)
T0B38 003:673 JLINK_WriteReg(MSP, 0x20001000)  returns 0x00 (0000ms, 1105ms total)
T0B38 003:673 JLINK_WriteReg(PSP, 0x20001000)  returns 0x00 (0000ms, 1105ms total)
T0B38 003:673 JLINK_WriteReg(CFBP, 0x00000000)  returns 0x00 (0000ms, 1105ms total)
T0B38 003:673 JLINK_SetBPEx(Addr = 0x20000000, Type = 0xFFFFFFF2)  returns 0x00000008 (0001ms, 1106ms total)
T0B38 003:674 JLINK_Go() -- CPU_ReadMem(4 bytes @ 0xE0001000) (0001ms, 1107ms total)
T0B38 003:675 JLINK_IsHalted() -- CPU_ReadMem(2 bytes @ 0x20000000)  returns TRUE (0003ms, 1110ms total)
T0B38 003:678 JLINK_ReadReg(R15 (PC))  returns 0x20000000 (0000ms, 1107ms total)
T0B38 003:678 JLINK_ClrBPEx(BPHandle = 0x00000008)  returns 0x00 (0000ms, 1107ms total)
T0B38 003:678 JLINK_ReadReg(R0)  returns 0x00000000 (0000ms, 1107ms total)
T0B38 003:787 JLINK_WriteMem(0x20000000, 0x0198 Bytes, ...) - Data: 00 BE 0A E0 0D 78 2D 06 68 40 08 24 40 00 00 D3 ... -- CPU_WriteMem(408 bytes @ 0x20000000)  returns 0x198 (0002ms, 1109ms total)
T0B38 003:789 JLINK_WriteReg(R0, 0x08000000)  returns 0x00 (0000ms, 1109ms total)
T0B38 003:789 JLINK_WriteReg(R1, 0x0A037A00)  returns 0x00 (0000ms, 1109ms total)
T0B38 003:789 JLINK_WriteReg(R2, 0x00000002)  returns 0x00 (0000ms, 1109ms total)
T0B38 003:789 JLINK_WriteReg(R3, 0x00000000)  returns 0x00 (0000ms, 1109ms total)
T0B38 003:789 JLINK_WriteReg(R4, 0x00000000)  returns 0x00 (0000ms, 1109ms total)
T0B38 003:789 JLINK_WriteReg(R5, 0x00000000)  returns 0x00 (0000ms, 1109ms total)
T0B38 003:790 JLINK_WriteReg(R6, 0x00000000)  returns 0x00 (0000ms, 1109ms total)
T0B38 003:790 JLINK_WriteReg(R7, 0x00000000)  returns 0x00 (0000ms, 1109ms total)
T0B38 003:790 JLINK_WriteReg(R8, 0x00000000)  returns 0x00 (0000ms, 1109ms total)
T0B38 003:790 JLINK_WriteReg(R9, 0x20000194)  returns 0x00 (0000ms, 1109ms total)
T0B38 003:790 JLINK_WriteReg(R10, 0x00000000)  returns 0x00 (0000ms, 1109ms total)
T0B38 003:790 JLINK_WriteReg(R11, 0x00000000)  returns 0x00 (0000ms, 1109ms total)
T0B38 003:790 JLINK_WriteReg(R12, 0x00000000)  returns 0x00 (0000ms, 1109ms total)
T0B38 003:790 JLINK_WriteReg(R13 (SP), 0x20001000)  returns 0x00 (0000ms, 1109ms total)
T0B38 003:790 JLINK_WriteReg(R14, 0x20000001)  returns 0x00 (0000ms, 1109ms total)
T0B38 003:790 JLINK_WriteReg(R15 (PC), 0x2000005E)  returns 0x00 (0000ms, 1109ms total)
T0B38 003:790 JLINK_WriteReg(XPSR, 0x01000000)  returns 0x00 (0000ms, 1109ms total)
T0B38 003:790 JLINK_WriteReg(MSP, 0x20001000)  returns 0x00 (0000ms, 1109ms total)
T0B38 003:790 JLINK_WriteReg(PSP, 0x20001000)  returns 0x00 (0000ms, 1109ms total)
T0B38 003:790 JLINK_WriteReg(CFBP, 0x00000000)  returns 0x00 (0000ms, 1109ms total)
T0B38 003:790 JLINK_SetBPEx(Addr = 0x20000000, Type = 0xFFFFFFF2) -- CPU_ReadMem(4 bytes @ 0x20000000) -- CPU_WriteMem(4 bytes @ 0x20000000) -- CPU_ReadMem(4 bytes @ 0x20000000) -- CPU_WriteMem(4 bytes @ 0x20000000) -- CPU_ReadMem(2 bytes @ 0x20000000)  returns 0x00000009 (0002ms, 1111ms total)
T0B38 003:792 JLINK_Go() -- CPU_WriteMem(2 bytes @ 0x20000000) -- CPU_ReadMem(4 bytes @ 0xE0001000) (0003ms, 1114ms total)
T0B38 003:795 JLINK_IsHalted() -- CPU_ReadMem(2 bytes @ 0x20000000)  returns TRUE (0002ms, 1116ms total)
T0B38 003:797 JLINK_ReadReg(R15 (PC))  returns 0x20000000 (0000ms, 1114ms total)
T0B38 003:797 JLINK_ClrBPEx(BPHandle = 0x00000009)  returns 0x00 (0000ms, 1114ms total)
T0B38 003:797 JLINK_ReadReg(R0)  returns 0x00000000 (0001ms, 1115ms total)
T0B38 003:799 JLINK_WriteMem(0x20000198, 0x0400 Bytes, ...) - Data: F0 6C 00 20 7D 02 00 08 11 68 00 08 CB 52 00 08 ... -- CPU_WriteMem(1024 bytes @ 0x20000198)  returns 0x400 (0004ms, 1119ms total)
T0B38 003:803 JLINK_WriteReg(R0, 0x08000000)  returns 0x00 (0000ms, 1119ms total)
T0B38 003:803 JLINK_WriteReg(R1, 0x00000400)  returns 0x00 (0000ms, 1119ms total)
T0B38 003:803 JLINK_WriteReg(R2, 0x20000198)  returns 0x00 (0000ms, 1119ms total)
T0B38 003:803 JLINK_WriteReg(R3, 0x00000000)  returns 0x00 (0000ms, 1119ms total)
T0B38 003:803 JLINK_WriteReg(R4, 0x00000000)  returns 0x00 (0000ms, 1119ms total)
T0B38 003:803 JLINK_WriteReg(R5, 0x00000000)  returns 0x00 (0000ms, 1119ms total)
T0B38 003:803 JLINK_WriteReg(R6, 0x00000000)  returns 0x00 (0000ms, 1119ms total)
T0B38 003:803 JLINK_WriteReg(R7, 0x00000000)  returns 0x00 (0001ms, 1120ms total)
T0B38 003:804 JLINK_WriteReg(R8, 0x00000000)  returns 0x00 (0000ms, 1120ms total)
T0B38 003:804 JLINK_WriteReg(R9, 0x20000194)  returns 0x00 (0000ms, 1120ms total)
T0B38 003:804 JLINK_WriteReg(R10, 0x00000000)  returns 0x00 (0000ms, 1120ms total)
T0B38 003:804 JLINK_WriteReg(R11, 0x00000000)  returns 0x00 (0000ms, 1120ms total)
T0B38 003:804 JLINK_WriteReg(R12, 0x00000000)  returns 0x00 (0000ms, 1120ms total)
T0B38 003:804 JLINK_WriteReg(R13 (SP), 0x20001000)  returns 0x00 (0000ms, 1120ms total)
T0B38 003:804 JLINK_WriteReg(R14, 0x20000001)  returns 0x00 (0000ms, 1120ms total)
T0B38 003:804 JLINK_WriteReg(R15 (PC), 0x20000120)  returns 0x00 (0000ms, 1120ms total)
T0B38 003:804 JLINK_WriteReg(XPSR, 0x01000000)  returns 0x00 (0000ms, 1120ms total)
T0B38 003:804 JLINK_WriteReg(MSP, 0x20001000)  returns 0x00 (0000ms, 1120ms total)
T0B38 003:804 JLINK_WriteReg(PSP, 0x20001000)  returns 0x00 (0000ms, 1120ms total)
T0B38 003:804 JLINK_WriteReg(CFBP, 0x00000000)  returns 0x00 (0000ms, 1120ms total)
T0B38 003:804 JLINK_SetBPEx(Addr = 0x20000000, Type = 0xFFFFFFF2)  returns 0x0000000A (0000ms, 1120ms total)
T0B38 003:804 JLINK_Go() -- CPU_ReadMem(4 bytes @ 0xE0001000) (0002ms, 1122ms total)
T0B38 003:806 JLINK_IsHalted()  returns FALSE (0000ms, 1122ms total)
T0B38 004:116 JLINK_IsHalted() -- CPU_ReadMem(2 bytes @ 0x20000000)  returns TRUE (0003ms, 1125ms total)
T0B38 004:119 JLINK_ReadReg(R15 (PC))  returns 0x20000000 (0000ms, 1122ms total)
T0B38 004:119 JLINK_ClrBPEx(BPHandle = 0x0000000A)  returns 0x00 (0000ms, 1122ms total)
T0B38 004:119 JLINK_ReadReg(R0)  returns 0x00000000 (0000ms, 1122ms total)
T0B38 004:122 JLINK_WriteMem(0x20000198, 0x0400 Bytes, ...) - Data: 06 D8 90 ED 0E 0A B1 EE 40 0A 80 ED 0D 0A 0C E0 ... -- CPU_WriteMem(1024 bytes @ 0x20000198)  returns 0x400 (0004ms, 1126ms total)
T0B38 004:126 JLINK_WriteReg(R0, 0x08000400)  returns 0x00 (0000ms, 1126ms total)
T0B38 004:126 JLINK_WriteReg(R1, 0x00000400)  returns 0x00 (0001ms, 1127ms total)
T0B38 004:127 JLINK_WriteReg(R2, 0x20000198)  returns 0x00 (0000ms, 1127ms total)
T0B38 004:127 JLINK_WriteReg(R3, 0x00000000)  returns 0x00 (0000ms, 1127ms total)
T0B38 004:127 JLINK_WriteReg(R4, 0x00000000)  returns 0x00 (0000ms, 1127ms total)
T0B38 004:127 JLINK_WriteReg(R5, 0x00000000)  returns 0x00 (0000ms, 1127ms total)
T0B38 004:127 JLINK_WriteReg(R6, 0x00000000)  returns 0x00 (0000ms, 1127ms total)
T0B38 004:127 JLINK_WriteReg(R7, 0x00000000)  returns 0x00 (0000ms, 1127ms total)
T0B38 004:127 JLINK_WriteReg(R8, 0x00000000)  returns 0x00 (0000ms, 1127ms total)
T0B38 004:127 JLINK_WriteReg(R9, 0x20000194)  returns 0x00 (0000ms, 1127ms total)
T0B38 004:127 JLINK_WriteReg(R10, 0x00000000)  returns 0x00 (0000ms, 1127ms total)
T0B38 004:127 JLINK_WriteReg(R11, 0x00000000)  returns 0x00 (0000ms, 1127ms total)
T0B38 004:127 JLINK_WriteReg(R12, 0x00000000)  returns 0x00 (0000ms, 1127ms total)
T0B38 004:127 JLINK_WriteReg(R13 (SP), 0x20001000)  returns 0x00 (0000ms, 1127ms total)
T0B38 004:127 JLINK_WriteReg(R14, 0x20000001)  returns 0x00 (0000ms, 1127ms total)
T0B38 004:127 JLINK_WriteReg(R15 (PC), 0x20000120)  returns 0x00 (0000ms, 1127ms total)
T0B38 004:127 JLINK_WriteReg(XPSR, 0x01000000)  returns 0x00 (0000ms, 1127ms total)
T0B38 004:127 JLINK_WriteReg(MSP, 0x20001000)  returns 0x00 (0000ms, 1127ms total)
T0B38 004:127 JLINK_WriteReg(PSP, 0x20001000)  returns 0x00 (0000ms, 1127ms total)
T0B38 004:127 JLINK_WriteReg(CFBP, 0x00000000)  returns 0x00 (0000ms, 1127ms total)
T0B38 004:127 JLINK_SetBPEx(Addr = 0x20000000, Type = 0xFFFFFFF2)  returns 0x0000000B (0001ms, 1128ms total)
T0B38 004:128 JLINK_Go() -- CPU_ReadMem(4 bytes @ 0xE0001000) (0001ms, 1129ms total)
T0B38 004:129 JLINK_IsHalted()  returns FALSE (0001ms, 1130ms total)
T0B38 004:426 JLINK_IsHalted() -- CPU_ReadMem(2 bytes @ 0x20000000)  returns TRUE (0003ms, 1132ms total)
T0B38 004:429 JLINK_ReadReg(R15 (PC))  returns 0x20000000 (0000ms, 1129ms total)
T0B38 004:429 JLINK_ClrBPEx(BPHandle = 0x0000000B)  returns 0x00 (0000ms, 1129ms total)
T0B38 004:429 JLINK_ReadReg(R0)  returns 0x00000000 (0000ms, 1129ms total)
T0B38 004:433 JLINK_WriteMem(0x20000198, 0x0400 Bytes, ...) - Data: 30 B5 04 1E 71 F1 00 04 04 DB 4F F0 00 44 40 42 ... -- CPU_WriteMem(1024 bytes @ 0x20000198)  returns 0x400 (0004ms, 1133ms total)
T0B38 004:437 JLINK_WriteReg(R0, 0x08000800)  returns 0x00 (0000ms, 1133ms total)
T0B38 004:437 JLINK_WriteReg(R1, 0x00000400)  returns 0x00 (0000ms, 1133ms total)
T0B38 004:437 JLINK_WriteReg(R2, 0x20000198)  returns 0x00 (0000ms, 1133ms total)
T0B38 004:437 JLINK_WriteReg(R3, 0x00000000)  returns 0x00 (0000ms, 1133ms total)
T0B38 004:437 JLINK_WriteReg(R4, 0x00000000)  returns 0x00 (0000ms, 1133ms total)
T0B38 004:437 JLINK_WriteReg(R5, 0x00000000)  returns 0x00 (0000ms, 1133ms total)
T0B38 004:437 JLINK_WriteReg(R6, 0x00000000)  returns 0x00 (0000ms, 1133ms total)
T0B38 004:437 JLINK_WriteReg(R7, 0x00000000)  returns 0x00 (0000ms, 1133ms total)
T0B38 004:437 JLINK_WriteReg(R8, 0x00000000)  returns 0x00 (0000ms, 1133ms total)
T0B38 004:438 JLINK_WriteReg(R9, 0x20000194)  returns 0x00 (0000ms, 1134ms total)
T0B38 004:438 JLINK_WriteReg(R10, 0x00000000)  returns 0x00 (0000ms, 1134ms total)
T0B38 004:438 JLINK_WriteReg(R11, 0x00000000)  returns 0x00 (0000ms, 1134ms total)
T0B38 004:438 JLINK_WriteReg(R12, 0x00000000)  returns 0x00 (0000ms, 1134ms total)
T0B38 004:438 JLINK_WriteReg(R13 (SP), 0x20001000)  returns 0x00 (0000ms, 1134ms total)
T0B38 004:438 JLINK_WriteReg(R14, 0x20000001)  returns 0x00 (0000ms, 1134ms total)
T0B38 004:438 JLINK_WriteReg(R15 (PC), 0x20000120)  returns 0x00 (0000ms, 1134ms total)
T0B38 004:438 JLINK_WriteReg(XPSR, 0x01000000)  returns 0x00 (0000ms, 1134ms total)
T0B38 004:438 JLINK_WriteReg(MSP, 0x20001000)  returns 0x00 (0000ms, 1134ms total)
T0B38 004:438 JLINK_WriteReg(PSP, 0x20001000)  returns 0x00 (0000ms, 1134ms total)
T0B38 004:438 JLINK_WriteReg(CFBP, 0x00000000)  returns 0x00 (0000ms, 1134ms total)
T0B38 004:438 JLINK_SetBPEx(Addr = 0x20000000, Type = 0xFFFFFFF2)  returns 0x0000000C (0000ms, 1134ms total)
T0B38 004:438 JLINK_Go() -- CPU_ReadMem(4 bytes @ 0xE0001000) (0002ms, 1136ms total)
T0B38 004:440 JLINK_IsHalted()  returns FALSE (0000ms, 1136ms total)
T0B38 004:747 JLINK_IsHalted() -- CPU_ReadMem(2 bytes @ 0x20000000)  returns TRUE (0002ms, 1138ms total)
T0B38 004:749 JLINK_ReadReg(R15 (PC))  returns 0x20000000 (0000ms, 1136ms total)
T0B38 004:749 JLINK_ClrBPEx(BPHandle = 0x0000000C)  returns 0x00 (0000ms, 1136ms total)
T0B38 004:749 JLINK_ReadReg(R0)  returns 0x00000000 (0001ms, 1137ms total)
T0B38 004:753 JLINK_WriteMem(0x20000198, 0x0400 Bytes, ...) - Data: 01 F0 20 FD 00 20 10 BD 12 21 F7 E7 00 20 70 47 ... -- CPU_WriteMem(1024 bytes @ 0x20000198)  returns 0x400 (0004ms, 1141ms total)
T0B38 004:757 JLINK_WriteReg(R0, 0x08000C00)  returns 0x00 (0000ms, 1141ms total)
T0B38 004:757 JLINK_WriteReg(R1, 0x00000400)  returns 0x00 (0000ms, 1141ms total)
T0B38 004:757 JLINK_WriteReg(R2, 0x20000198)  returns 0x00 (0000ms, 1141ms total)
T0B38 004:757 JLINK_WriteReg(R3, 0x00000000)  returns 0x00 (0000ms, 1141ms total)
T0B38 004:757 JLINK_WriteReg(R4, 0x00000000)  returns 0x00 (0001ms, 1142ms total)
T0B38 004:758 JLINK_WriteReg(R5, 0x00000000)  returns 0x00 (0000ms, 1142ms total)
T0B38 004:758 JLINK_WriteReg(R6, 0x00000000)  returns 0x00 (0000ms, 1142ms total)
T0B38 004:758 JLINK_WriteReg(R7, 0x00000000)  returns 0x00 (0000ms, 1142ms total)
T0B38 004:758 JLINK_WriteReg(R8, 0x00000000)  returns 0x00 (0000ms, 1142ms total)
T0B38 004:758 JLINK_WriteReg(R9, 0x20000194)  returns 0x00 (0000ms, 1142ms total)
T0B38 004:758 JLINK_WriteReg(R10, 0x00000000)  returns 0x00 (0000ms, 1142ms total)
T0B38 004:758 JLINK_WriteReg(R11, 0x00000000)  returns 0x00 (0000ms, 1142ms total)
T0B38 004:758 JLINK_WriteReg(R12, 0x00000000)  returns 0x00 (0000ms, 1142ms total)
T0B38 004:758 JLINK_WriteReg(R13 (SP), 0x20001000)  returns 0x00 (0000ms, 1142ms total)
T0B38 004:758 JLINK_WriteReg(R14, 0x20000001)  returns 0x00 (0000ms, 1142ms total)
T0B38 004:758 JLINK_WriteReg(R15 (PC), 0x20000120)  returns 0x00 (0000ms, 1142ms total)
T0B38 004:758 JLINK_WriteReg(XPSR, 0x01000000)  returns 0x00 (0000ms, 1142ms total)
T0B38 004:758 JLINK_WriteReg(MSP, 0x20001000)  returns 0x00 (0000ms, 1142ms total)
T0B38 004:758 JLINK_WriteReg(PSP, 0x20001000)  returns 0x00 (0000ms, 1142ms total)
T0B38 004:758 JLINK_WriteReg(CFBP, 0x00000000)  returns 0x00 (0000ms, 1142ms total)
T0B38 004:759 JLINK_SetBPEx(Addr = 0x20000000, Type = 0xFFFFFFF2)  returns 0x0000000D (0000ms, 1142ms total)
T0B38 004:759 JLINK_Go() -- CPU_ReadMem(4 bytes @ 0xE0001000) (0001ms, 1143ms total)
T0B38 004:760 JLINK_IsHalted()  returns FALSE (0001ms, 1144ms total)
T0B38 005:061 JLINK_IsHalted() -- CPU_ReadMem(2 bytes @ 0x20000000)  returns TRUE (0003ms, 1146ms total)
T0B38 005:064 JLINK_ReadReg(R15 (PC))  returns 0x20000000 (0000ms, 1143ms total)
T0B38 005:064 JLINK_ClrBPEx(BPHandle = 0x0000000D)  returns 0x00 (0000ms, 1143ms total)
T0B38 005:064 JLINK_ReadReg(R0)  returns 0x00000000 (0000ms, 1143ms total)
T0B38 005:065 JLINK_WriteMem(0x20000198, 0x0400 Bytes, ...) - Data: E0 89 20 82 55 E7 00 00 A8 02 00 20 68 0B 00 20 ... -- CPU_WriteMem(1024 bytes @ 0x20000198)  returns 0x400 (0005ms, 1148ms total)
T0B38 005:070 JLINK_WriteReg(R0, 0x08001000)  returns 0x00 (0000ms, 1148ms total)
T0B38 005:070 JLINK_WriteReg(R1, 0x00000400)  returns 0x00 (0000ms, 1148ms total)
T0B38 005:070 JLINK_WriteReg(R2, 0x20000198)  returns 0x00 (0000ms, 1148ms total)
T0B38 005:070 JLINK_WriteReg(R3, 0x00000000)  returns 0x00 (0000ms, 1148ms total)
T0B38 005:070 JLINK_WriteReg(R4, 0x00000000)  returns 0x00 (0000ms, 1148ms total)
T0B38 005:070 JLINK_WriteReg(R5, 0x00000000)  returns 0x00 (0000ms, 1148ms total)
T0B38 005:070 JLINK_WriteReg(R6, 0x00000000)  returns 0x00 (0000ms, 1148ms total)
T0B38 005:070 JLINK_WriteReg(R7, 0x00000000)  returns 0x00 (0000ms, 1148ms total)
T0B38 005:070 JLINK_WriteReg(R8, 0x00000000)  returns 0x00 (0000ms, 1148ms total)
T0B38 005:070 JLINK_WriteReg(R9, 0x20000194)  returns 0x00 (0000ms, 1148ms total)
T0B38 005:070 JLINK_WriteReg(R10, 0x00000000)  returns 0x00 (0000ms, 1148ms total)
T0B38 005:070 JLINK_WriteReg(R11, 0x00000000)  returns 0x00 (0000ms, 1148ms total)
T0B38 005:070 JLINK_WriteReg(R12, 0x00000000)  returns 0x00 (0000ms, 1148ms total)
T0B38 005:070 JLINK_WriteReg(R13 (SP), 0x20001000)  returns 0x00 (0000ms, 1148ms total)
T0B38 005:070 JLINK_WriteReg(R14, 0x20000001)  returns 0x00 (0000ms, 1148ms total)
T0B38 005:070 JLINK_WriteReg(R15 (PC), 0x20000120)  returns 0x00 (0000ms, 1148ms total)
T0B38 005:070 JLINK_WriteReg(XPSR, 0x01000000)  returns 0x00 (0000ms, 1148ms total)
T0B38 005:070 JLINK_WriteReg(MSP, 0x20001000)  returns 0x00 (0000ms, 1148ms total)
T0B38 005:070 JLINK_WriteReg(PSP, 0x20001000)  returns 0x00 (0001ms, 1149ms total)
T0B38 005:071 JLINK_WriteReg(CFBP, 0x00000000)  returns 0x00 (0000ms, 1149ms total)
T0B38 005:071 JLINK_SetBPEx(Addr = 0x20000000, Type = 0xFFFFFFF2)  returns 0x0000000E (0000ms, 1149ms total)
T0B38 005:071 JLINK_Go() -- CPU_ReadMem(4 bytes @ 0xE0001000) (0001ms, 1150ms total)
T0B38 005:072 JLINK_IsHalted()  returns FALSE (0001ms, 1151ms total)
T0B38 005:386 JLINK_IsHalted() -- CPU_ReadMem(2 bytes @ 0x20000000)  returns TRUE (0003ms, 1153ms total)
T0B38 005:389 JLINK_ReadReg(R15 (PC))  returns 0x20000000 (0000ms, 1150ms total)
T0B38 005:389 JLINK_ClrBPEx(BPHandle = 0x0000000E)  returns 0x00 (0000ms, 1150ms total)
T0B38 005:389 JLINK_ReadReg(R0)  returns 0x00000000 (0000ms, 1150ms total)
T0B38 005:391 JLINK_WriteMem(0x20000198, 0x0400 Bytes, ...) - Data: 4F F4 B4 71 07 E0 88 1A 98 42 19 DD 50 1A 4F F4 ... -- CPU_WriteMem(1024 bytes @ 0x20000198)  returns 0x400 (0004ms, 1154ms total)
T0B38 005:395 JLINK_WriteReg(R0, 0x08001400)  returns 0x00 (0000ms, 1154ms total)
T0B38 005:395 JLINK_WriteReg(R1, 0x00000400)  returns 0x00 (0000ms, 1154ms total)
T0B38 005:395 JLINK_WriteReg(R2, 0x20000198)  returns 0x00 (0000ms, 1154ms total)
T0B38 005:395 JLINK_WriteReg(R3, 0x00000000)  returns 0x00 (0000ms, 1154ms total)
T0B38 005:395 JLINK_WriteReg(R4, 0x00000000)  returns 0x00 (0000ms, 1154ms total)
T0B38 005:395 JLINK_WriteReg(R5, 0x00000000)  returns 0x00 (0000ms, 1154ms total)
T0B38 005:395 JLINK_WriteReg(R6, 0x00000000)  returns 0x00 (0000ms, 1154ms total)
T0B38 005:395 JLINK_WriteReg(R7, 0x00000000)  returns 0x00 (0000ms, 1154ms total)
T0B38 005:395 JLINK_WriteReg(R8, 0x00000000)  returns 0x00 (0000ms, 1154ms total)
T0B38 005:395 JLINK_WriteReg(R9, 0x20000194)  returns 0x00 (0001ms, 1155ms total)
T0B38 005:396 JLINK_WriteReg(R10, 0x00000000)  returns 0x00 (0000ms, 1155ms total)
T0B38 005:396 JLINK_WriteReg(R11, 0x00000000)  returns 0x00 (0000ms, 1155ms total)
T0B38 005:396 JLINK_WriteReg(R12, 0x00000000)  returns 0x00 (0000ms, 1155ms total)
T0B38 005:396 JLINK_WriteReg(R13 (SP), 0x20001000)  returns 0x00 (0000ms, 1155ms total)
T0B38 005:396 JLINK_WriteReg(R14, 0x20000001)  returns 0x00 (0000ms, 1155ms total)
T0B38 005:396 JLINK_WriteReg(R15 (PC), 0x20000120)  returns 0x00 (0000ms, 1155ms total)
T0B38 005:396 JLINK_WriteReg(XPSR, 0x01000000)  returns 0x00 (0000ms, 1155ms total)
T0B38 005:396 JLINK_WriteReg(MSP, 0x20001000)  returns 0x00 (0000ms, 1155ms total)
T0B38 005:396 JLINK_WriteReg(PSP, 0x20001000)  returns 0x00 (0000ms, 1155ms total)
T0B38 005:396 JLINK_WriteReg(CFBP, 0x00000000)  returns 0x00 (0000ms, 1155ms total)
T0B38 005:396 JLINK_SetBPEx(Addr = 0x20000000, Type = 0xFFFFFFF2)  returns 0x0000000F (0000ms, 1155ms total)
T0B38 005:396 JLINK_Go() -- CPU_ReadMem(4 bytes @ 0xE0001000) (0002ms, 1157ms total)
T0B38 005:398 JLINK_IsHalted()  returns FALSE (0001ms, 1158ms total)
T0B38 005:730 JLINK_IsHalted() -- CPU_ReadMem(2 bytes @ 0x20000000)  returns TRUE (0003ms, 1160ms total)
T0B38 005:733 JLINK_ReadReg(R15 (PC))  returns 0x20000000 (0000ms, 1157ms total)
T0B38 005:733 JLINK_ClrBPEx(BPHandle = 0x0000000F)  returns 0x00 (0000ms, 1157ms total)
T0B38 005:733 JLINK_ReadReg(R0)  returns 0x00000000 (0000ms, 1157ms total)
T0B38 005:735 JLINK_WriteMem(0x20000198, 0x0400 Bytes, ...) - Data: 10 0A DF ED 16 0A 11 4C 20 EE 20 0A D4 34 84 ED ... -- CPU_WriteMem(1024 bytes @ 0x20000198)  returns 0x400 (0004ms, 1161ms total)
T0B38 005:739 JLINK_WriteReg(R0, 0x08001800)  returns 0x00 (0000ms, 1161ms total)
T0B38 005:739 JLINK_WriteReg(R1, 0x00000400)  returns 0x00 (0000ms, 1161ms total)
T0B38 005:739 JLINK_WriteReg(R2, 0x20000198)  returns 0x00 (0000ms, 1161ms total)
T0B38 005:739 JLINK_WriteReg(R3, 0x00000000)  returns 0x00 (0000ms, 1161ms total)
T0B38 005:739 JLINK_WriteReg(R4, 0x00000000)  returns 0x00 (0000ms, 1161ms total)
T0B38 005:739 JLINK_WriteReg(R5, 0x00000000)  returns 0x00 (0000ms, 1161ms total)
T0B38 005:739 JLINK_WriteReg(R6, 0x00000000)  returns 0x00 (0000ms, 1161ms total)
T0B38 005:739 JLINK_WriteReg(R7, 0x00000000)  returns 0x00 (0000ms, 1161ms total)
T0B38 005:739 JLINK_WriteReg(R8, 0x00000000)  returns 0x00 (0001ms, 1162ms total)
T0B38 005:740 JLINK_WriteReg(R9, 0x20000194)  returns 0x00 (0000ms, 1162ms total)
T0B38 005:740 JLINK_WriteReg(R10, 0x00000000)  returns 0x00 (0000ms, 1162ms total)
T0B38 005:740 JLINK_WriteReg(R11, 0x00000000)  returns 0x00 (0000ms, 1162ms total)
T0B38 005:740 JLINK_WriteReg(R12, 0x00000000)  returns 0x00 (0000ms, 1162ms total)
T0B38 005:740 JLINK_WriteReg(R13 (SP), 0x20001000)  returns 0x00 (0000ms, 1162ms total)
T0B38 005:740 JLINK_WriteReg(R14, 0x20000001)  returns 0x00 (0000ms, 1162ms total)
T0B38 005:740 JLINK_WriteReg(R15 (PC), 0x20000120)  returns 0x00 (0000ms, 1162ms total)
T0B38 005:740 JLINK_WriteReg(XPSR, 0x01000000)  returns 0x00 (0000ms, 1162ms total)
T0B38 005:740 JLINK_WriteReg(MSP, 0x20001000)  returns 0x00 (0000ms, 1162ms total)
T0B38 005:740 JLINK_WriteReg(PSP, 0x20001000)  returns 0x00 (0000ms, 1162ms total)
T0B38 005:740 JLINK_WriteReg(CFBP, 0x00000000)  returns 0x00 (0000ms, 1162ms total)
T0B38 005:740 JLINK_SetBPEx(Addr = 0x20000000, Type = 0xFFFFFFF2)  returns 0x00000010 (0000ms, 1162ms total)
T0B38 005:740 JLINK_Go() -- CPU_ReadMem(4 bytes @ 0xE0001000) (0002ms, 1164ms total)
T0B38 005:742 JLINK_IsHalted()  returns FALSE (0000ms, 1164ms total)
T0B38 006:043 JLINK_IsHalted() -- CPU_ReadMem(2 bytes @ 0x20000000)  returns TRUE (0003ms, 1167ms total)
T0B38 006:046 JLINK_ReadReg(R15 (PC))  returns 0x20000000 (0000ms, 1164ms total)
T0B38 006:046 JLINK_ClrBPEx(BPHandle = 0x00000010)  returns 0x00 (0000ms, 1164ms total)
T0B38 006:046 JLINK_ReadReg(R0)  returns 0x00000000 (0000ms, 1164ms total)
T0B38 006:047 JLINK_WriteMem(0x20000198, 0x0400 Bytes, ...) - Data: 18 0B A0 6A FE F7 D1 FD 53 EC 18 2B FE F7 34 FC ... -- CPU_WriteMem(1024 bytes @ 0x20000198)  returns 0x400 (0004ms, 1168ms total)
T0B38 006:051 JLINK_WriteReg(R0, 0x08001C00)  returns 0x00 (0000ms, 1168ms total)
T0B38 006:051 JLINK_WriteReg(R1, 0x00000400)  returns 0x00 (0001ms, 1169ms total)
T0B38 006:052 JLINK_WriteReg(R2, 0x20000198)  returns 0x00 (0000ms, 1169ms total)
T0B38 006:052 JLINK_WriteReg(R3, 0x00000000)  returns 0x00 (0000ms, 1169ms total)
T0B38 006:052 JLINK_WriteReg(R4, 0x00000000)  returns 0x00 (0000ms, 1169ms total)
T0B38 006:052 JLINK_WriteReg(R5, 0x00000000)  returns 0x00 (0000ms, 1169ms total)
T0B38 006:052 JLINK_WriteReg(R6, 0x00000000)  returns 0x00 (0000ms, 1169ms total)
T0B38 006:052 JLINK_WriteReg(R7, 0x00000000)  returns 0x00 (0000ms, 1169ms total)
T0B38 006:052 JLINK_WriteReg(R8, 0x00000000)  returns 0x00 (0000ms, 1169ms total)
T0B38 006:052 JLINK_WriteReg(R9, 0x20000194)  returns 0x00 (0000ms, 1169ms total)
T0B38 006:052 JLINK_WriteReg(R10, 0x00000000)  returns 0x00 (0000ms, 1169ms total)
T0B38 006:052 JLINK_WriteReg(R11, 0x00000000)  returns 0x00 (0000ms, 1169ms total)
T0B38 006:052 JLINK_WriteReg(R12, 0x00000000)  returns 0x00 (0000ms, 1169ms total)
T0B38 006:052 JLINK_WriteReg(R13 (SP), 0x20001000)  returns 0x00 (0000ms, 1169ms total)
T0B38 006:052 JLINK_WriteReg(R14, 0x20000001)  returns 0x00 (0000ms, 1169ms total)
T0B38 006:052 JLINK_WriteReg(R15 (PC), 0x20000120)  returns 0x00 (0000ms, 1169ms total)
T0B38 006:052 JLINK_WriteReg(XPSR, 0x01000000)  returns 0x00 (0000ms, 1169ms total)
T0B38 006:052 JLINK_WriteReg(MSP, 0x20001000)  returns 0x00 (0000ms, 1169ms total)
